Time,Vin,Vout
99,2.6574,2.4462
113,2.1300,1.9702
126,1.9379,2.0171
141,1.9922,2.3944
154,2.6799,2.8363
167,3.0386,2.7634
182,2.7766,2.3377
195,1.8876,1.9150
209,1.7761,2.0616
223,2.0704,2.5122
237,2.9027,2.8773
250,2.9873,2.6852
265,2.4971,2.2087
278,1.8788,1.9037
291,2.0249,2.1427
306,2.3314,2.6163
319,2.9032,2.8749
333,2.9677,2.6241
347,2.4394,2.1295
361,1.8700,1.9042
374,1.8617,2.1965
389,2.3881,2.6970
402,3.1012,2.8763
416,2.9071,2.5474
430,2.1750,2.0337
443,1.7004,1.9370
457,1.9252,2.2967
471,2.6373,2.7796
485,3.0596,2.8138
498,2.6569,2.4462
513,2.1359,1.9756
526,1.9404,2.0166
540,1.9761,2.3719
553,2.6711,2.8255
568,3.0499,2.7659
581,2.7928,2.3631
594,2.0919,1.9272
609,1.7649,2.0435
622,2.0523,2.4824
636,2.9022,2.8768
650,2.9995,2.7072
664,2.5108,2.2341
677,1.8822,1.9022
692,1.8148,2.1237
705,2.3196,2.5987
719,2.9037,2.8754
733,2.7674,2.6285
746,2.4511,2.1452
760,1.8719,1.9052
774,1.8495,2.1769
788,2.3744,2.6779
801,3.1095,2.8783
816,2.9198,2.5679
829,2.3837,2.0577
843,1.6935,1.9247
857,1.9062,2.2693
871,2.6310,2.7703
884,3.0684,2.8289
898,2.6637,2.4658
912,2.1486,1.9897
925,1.7297,1.9858
940,1.9545,2.3548
953,2.6603,2.8113
967,2.8475,2.7693
980,2.8148,2.3939
995,2.1051,1.9418
1008,1.7556,2.0254
1022,2.0186,2.4335
1036,2.6896,2.8500
1050,3.0337,2.7561
1063,2.7761,2.3412
1078,2.0894,1.9247
1091,1.7630,2.0406
1105,2.0386,2.4609
1119,2.9022,2.8641
1133,3.0210,2.7366
1146,2.7527,2.3084
1161,1.8895,1.9013
1174,1.7752,2.0606
1188,2.0591,2.4932
1202,2.9027,2.8773
1216,3.0098,2.7214
1229,2.7297,2.2747
1244,1.8876,1.9027
1257,1.7859,2.0777
1271,2.0802,2.5220
1285,2.9018,2.8768
1299,2.9941,2.7004
1312,2.5137,2.2449
1327,1.8851,1.9037
1341,1.7977,2.0968
1354,2.2977,2.5552
1369,2.9027,2.8773
1382,2.9863,2.6852
1396,2.5073,2.2204
1410,1.8837,1.9032
1424,1.8065,2.1105
1437,2.3060,2.5743
1452,2.9027,2.8763
1465,2.9756,2.6701
1479,2.4941,2.2028
1492,1.8817,1.9042
1507,2.0244,2.1310
1520,2.3201,2.5953
1534,2.9042,2.8773
1548,2.7717,2.6471
1562,2.4800,2.1852
1575,1.8793,1.9057
1590,2.0269,2.1564
1603,2.3289,2.6090
1617,2.9042,2.8759
1632,2.7698,2.6325
1645,2.4673,2.1672
1659,1.8778,1.9057
1673,2.0269,2.1613
1687,2.3387,2.6241
1700,2.9042,2.8759
1715,2.7683,2.6281
1728,2.4599,2.1574
1742,1.8763,1.9047
1756,2.0279,2.1647
1770,2.3431,2.6320
1783,2.9062,2.8759
1798,2.9731,2.6256
1811,2.4531,2.1476
1825,1.8773,1.9062
1840,1.8333,2.1676
1853,2.3495,2.6398
1867,2.9062,2.8773
1881,2.9673,2.6237
1895,2.4487,2.1422
1908,1.8759,1.9057
1923,1.8397,2.1701
1936,2.3553,2.6491
1950,2.9071,2.8749
1964,2.9589,2.6251
1978,2.4409,2.1305
1991,1.8749,1.9057
2006,1.8485,2.1725
2019,2.3656,2.6632
2033,2.9066,2.8744
2046,2.9497,2.6124
2061,2.4291,2.1188
2075,1.8724,1.9057
2088,1.8543,2.1843
2103,2.3705,2.6720
2116,2.9096,2.8773
2130,2.9438,2.6026
2144,2.4179,2.1026
2158,1.6720,1.9062
2171,1.8671,2.2028
2186,2.3837,2.6896
2199,3.1109,2.8773
2213,2.9340,2.5875
2227,2.4081,2.0885
2241,1.6808,1.9062
2254,1.8773,2.2195
2269,2.3974,2.7072
2282,3.1046,2.8807
2296,2.9194,2.5655
2310,2.3930,2.0694
2324,1.6867,1.9110
2338,1.8871,2.2366
2352,2.4086,2.7248
2366,3.0992,2.8719
2379,2.9081,2.5494
2394,2.3793,2.0499
2407,1.6935,1.9233
2421,1.8983,2.2542
2435,2.6246,2.7434
2449,3.0909,2.8617
2462,2.8969,2.5308
2477,2.1750,2.0332
2490,1.7004,1.9350
2504,1.9130,2.2771
2518,2.6315,2.7693
2532,3.0816,2.8456
2545,2.8837,2.5117
2560,2.1691,2.0156
2573,1.7067,1.9443
2587,1.9213,2.2884
2601,2.6329,2.7722
2615,3.0777,2.8421
2629,2.8744,2.5005
2642,2.1637,2.0093
2657,1.7121,1.9555
2670,1.9326,2.3065
2684,2.6393,2.7815
2698,3.0704,2.8299
2712,2.6672,2.4790
2725,2.1564,2.0005
2740,1.7204,1.9692
2753,2.1442,2.3289
2767,2.6456,2.7889
2781,3.0630,2.8157
2795,2.6632,2.4541
2808,2.1500,1.9936
2823,1.7287,1.9795
2836,2.1471,2.3446
2850,2.6500,2.7952
2865,3.0543,2.8074
2878,2.6598,2.4472
2892,2.1437,1.9863
2906,1.7331,1.9888
2920,2.1491,2.3490
2933,2.6544,2.8006
2948,3.0494,2.7986
2961,2.8602,2.4418
2975,2.1383,1.9800
2989,1.9418,2.0034
3003,1.9648,2.3612
3016,2.6618,2.8113
3031,2.8514,2.7840
3044,2.8465,2.4330
3058,2.1300,1.9692
3072,1.9413,2.0200
3086,1.9790,2.3724
3099,2.6706,2.8226
3113,2.8524,2.7717
3127,2.8270,2.4150
3141,2.1207,1.9580
3155,1.9423,2.0225
3169,1.9946,2.3959
3183,2.6745,2.8309
3196,3.0538,2.7703
3211,2.8118,2.3905
3224,2.1109,1.9497
3238,1.7502,2.0225
3252,2.0088,2.4154
3266,2.6867,2.8446
3279,3.0445,2.7717
3294,2.7952,2.3661
3307,2.1022,1.9384
3321,1.7586,2.0293
3335,2.0230,2.4399
3349,2.6935,2.8529
3362,3.0362,2.7590
3377,2.7781,2.3441
3390,2.0934,1.9282
3404,1.7683,2.0435
3418,2.0371,2.4594
3432,2.9057,2.8636
3446,3.0264,2.7463
3460,2.7615,2.3221
3474,1.8920,1.9184
3487,1.7752,2.0557
3502,2.0518,2.4804
3515,2.9047,2.8783
3529,3.0191,2.7341
3543,2.7463,2.3006
3557,1.8920,1.9057
3570,1.7825,2.0679
3585,2.0704,2.5064
3598,2.9057,2.8807
3612,3.0064,2.7121
3625,2.7214,2.2639
3640,1.8910,1.9071
3653,1.7942,2.0880
3667,2.2937,2.5386
3681,2.9062,2.8807
3695,2.9956,2.6975
3708,2.5137,2.2385
3723,1.8876,1.9076
3737,1.8045,2.1051
3750,2.3045,2.5699
3765,2.9047,2.8788
3778,2.9848,2.6804
3792,2.5024,2.2146
3806,1.8871,1.9086
3820,1.8172,2.1232
3833,2.3143,2.5860
3848,2.9071,2.8793
3861,2.9741,2.6652
3875,2.4927,2.2004
3889,1.8842,1.9076
3903,2.0288,2.1408
3916,2.3265,2.6041
3931,2.9066,2.8788
3944,2.7732,2.6354
3958,2.4780,2.1833
3972,1.8822,1.9081
3986,2.0313,2.1618
3999,2.3338,2.6168
4014,2.9071,2.8807
4028,2.7717,2.6344
4041,2.4687,2.1686
4056,1.8803,1.9091
4069,2.0323,2.1662
4083,2.3426,2.6285
4097,2.9076,2.8788
4111,2.7698,2.6295
4124,2.4599,2.1554
4139,1.8793,1.9091
4152,1.8348,2.1696
4166,2.3500,2.6403
4179,2.9091,2.8788
4194,2.9682,2.6261
4207,2.4497,2.1432
4221,1.8788,1.9110
4235,1.8451,2.1740
4249,2.3592,2.6530
4263,2.9096,2.8793
4277,2.9599,2.6261
4291,2.4394,2.1305
4304,1.8749,1.9091
4319,1.8514,2.1764
4332,2.3680,2.6662
4346,2.9110,2.8788
4360,2.9501,2.6119
4374,2.4296,2.1163
4387,1.8739,1.9096
4402,1.8617,2.1926
4415,2.3768,2.6804
4429,2.9106,2.8768
4443,2.9433,2.6002
4457,2.4198,2.1031
4470,1.6760,1.9101
4485,1.8700,2.2058
4498,2.3900,2.6965
4512,3.1114,2.8798
4527,2.9291,2.5816
4540,2.4052,2.0846
4554,1.6862,1.9042
4568,1.8822,2.2268
4582,2.4022,2.7141
4595,3.1051,2.8812
4610,2.9203,2.5660
4623,2.3910,2.0679
4637,1.6921,1.9159
4651,1.8920,2.2424
4665,2.4120,2.7278
4678,3.0992,2.8710
4692,2.9091,2.5484
4706,2.1794,2.0494
4720,1.6955,1.9238
4733,1.9032,2.2610
4748,2.6271,2.7493
4761,3.0909,2.8597
4775,2.8935,2.5274
4790,2.1755,2.0308
4803,1.7043,1.9389
4817,1.9135,2.2766
4831,2.6310,2.7674
4845,3.0846,2.8524
4858,2.8866,2.5161
4873,2.1725,2.0181
4886,1.7077,1.9448
4900,1.9213,2.2869
4914,2.6354,2.7747
4928,3.0777,2.8431
4941,2.8754,2.5020
4956,2.1662,2.0127
4969,1.7121,1.9555
4983,1.9321,2.3035
4997,2.6388,2.7796
5011,3.0738,2.8353
5025,2.8690,2.4912
