Time,Vin,Vout
101,0.455,0.870
102,2.322,0.855
103,3.074,1.867
105,3.587,2.625
106,3.954,3.206
107,4.218,3.631
109,4.409,3.969
110,2.307,3.778
112,1.569,2.776
113,1.114,2.033
114,0.787,1.486
116,0.577,1.095
117,0.425,0.811
119,2.561,1.173
120,3.240,2.107
121,3.700,2.810
123,4.032,3.333
124,4.282,3.739
126,4.453,4.042
128,2.048,3.460
129,1.422,2.542
131,1.012,1.867
132,0.723,1.369
133,0.523,1.002
135,0.386,0.743
136,2.776,1.461
138,3.392,2.322
139,3.812,2.972
140,4.115,3.465
142,4.340,3.842
143,4.497,4.115
145,1.833,3.152
146,1.281,2.312
147,0.909,1.696
149,0.655,1.246
150,0.474,0.914
152,0.347,0.655
153,2.991,1.745
154,3.529,2.542
156,3.910,3.138
157,4.194,3.592
158,4.394,3.930
160,2.429,3.930
161,1.647,2.884
163,1.158,2.116
164,0.831,1.544
165,0.601,1.134
167,0.435,0.836
168,2.478,1.051
171,3.187,2.019
172,3.661,2.747
173,4.003,3.289
175,4.257,3.705
176,4.433,4.013
178,2.146,3.568
179,1.471,2.620
180,1.046,1.916
182,0.748,1.408
183,0.543,1.041
184,0.396,0.767
186,2.708,1.359
187,3.333,2.243
189,3.778,2.918
190,4.086,3.426
191,4.311,3.807
193,4.477,4.086
194,1.916,3.270
196,1.329,2.390
197,0.943,1.760
198,0.689,1.290
200,0.499,0.958
201,0.362,0.704
202,2.908,1.618
204,3.470,2.444
205,3.861,3.055
207,4.159,3.534
208,4.360,3.886
209,4.516,4.154
211,1.735,3.016
212,1.217,2.209
215,0.865,1.623
216,0.630,1.193
217,0.455,0.880
219,2.331,0.865
220,3.084,1.877
221,3.597,2.634
223,3.954,3.211
224,4.223,3.641
226,4.413,3.969
227,2.283,3.749
228,1.559,2.747
230,1.095,2.019
231,0.787,1.476
233,0.577,1.085
234,0.415,0.802
235,2.590,1.202
237,3.250,2.121
238,3.715,2.820
240,4.037,3.353
241,4.282,3.744
242,4.462,4.047
244,2.038,3.436
245,1.413,2.532
246,1.002,1.852
248,0.714,1.354
249,0.523,0.997
251,0.381,0.733
252,2.810,1.496
253,3.407,2.351
256,3.817,2.986
257,4.120,3.480
259,4.335,3.842
260,4.497,4.120
261,1.828,3.148
263,1.276,2.312
264,0.909,1.681
266,0.650,1.237
267,0.479,0.914
268,0.352,0.655
270,3.001,1.760
271,3.539,2.542
272,3.915,3.148
274,4.189,3.597
275,4.394,3.930
277,2.414,3.910
278,1.637,2.864
279,1.149,2.107
281,0.821,1.540
282,0.601,1.134
284,0.435,0.831
285,2.493,1.075
286,3.192,2.023
288,3.666,2.752
289,4.013,3.299
291,4.262,3.710
292,4.448,4.018
293,2.131,3.558
295,1.466,2.610
296,1.041,1.906
297,0.748,1.408
300,0.538,1.031
301,0.391,0.758
303,2.713,1.373
304,3.348,2.268
305,3.793,2.933
307,4.091,3.436
308,4.311,3.812
310,4.482,4.096
311,1.891,3.240
312,1.320,2.380
314,0.943,1.745
315,0.679,1.281
317,0.499,0.938
318,0.362,0.699
319,2.933,1.662
321,3.495,2.478
322,3.891,3.089
323,4.164,3.553
325,4.374,3.905
326,4.526,4.066
328,1.711,2.972
329,1.197,2.180
330,0.855,1.598
332,0.621,1.178
333,0.455,0.860
335,2.380,0.943
336,3.118,1.931
337,3.627,2.674
339,3.974,3.245
340,4.238,3.671
343,4.418,3.993
344,2.204,3.656
345,1.515,2.688
347,1.070,1.975
348,0.772,1.452
349,0.557,1.061
351,0.411,0.787
352,2.649,1.281
354,3.299,2.190
355,3.749,2.874
356,4.066,3.387
358,4.301,3.773
359,4.472,4.071
361,1.975,3.343
362,1.364,2.458
363,0.973,1.794
365,0.694,1.325
366,0.513,0.968
367,0.371,0.714
369,2.874,1.579
370,3.451,2.414
372,3.856,3.045
373,4.145,3.514
374,4.350,3.871
376,4.521,4.140
377,1.760,3.050
379,1.237,2.239
380,0.875,1.632
381,0.635,1.202
384,0.455,0.885
385,0.313,0.826
387,3.069,1.852
388,3.578,2.615
389,3.939,3.196
391,4.218,3.631
392,4.404,3.959
394,2.307,3.778
395,1.574,2.781
396,1.109,2.038
398,0.802,1.496
399,0.572,1.100
400,0.420,0.811
402,2.561,1.158
403,3.236,2.092
405,3.700,2.810
406,4.027,3.328
407,4.277,3.734
409,4.453,4.042
410,2.058,3.456
412,1.417,2.532
413,0.997,1.848
414,0.723,1.349
416,0.508,0.982
417,0.367,0.718
419,2.874,1.574
420,3.456,2.424
421,3.871,3.055
423,4.150,3.529
424,4.370,3.891
427,4.521,4.159
428,1.706,2.972
430,1.193,2.170
431,0.850,1.584
432,0.606,1.158
434,0.440,0.841
435,2.458,1.036
437,3.192,2.019
438,3.675,2.752
439,4.018,3.304
441,4.262,3.719
442,4.448,4.032
444,2.082,3.500
445,1.427,2.556
446,1.012,1.862
448,0.718,1.359
449,0.523,0.997
451,0.376,0.723
452,2.854,1.554
454,3.441,2.405
455,3.847,3.040
456,4.150,3.524
458,4.360,3.886
459,4.526,4.154
461,1.735,3.011
462,1.207,2.195
463,0.860,1.603
465,0.621,1.168
466,0.445,0.850
468,2.429,1.002
470,3.162,1.989
471,3.656,2.737
473,4.008,3.289
474,4.262,3.710
476,4.443,4.018
477,2.116,3.529
478,1.447,2.586
480,1.022,1.877
481,0.733,1.369
483,0.528,1.002
484,0.381,0.728
486,2.825,1.520
487,3.421,2.380
488,3.847,3.025
490,4.135,3.509
491,4.360,3.871
493,4.516,4.140
494,1.750,3.035
495,1.222,2.219
497,0.865,1.618
498,0.616,1.183
500,0.459,0.860
501,2.400,0.968
502,3.143,1.970
504,3.651,2.713
505,3.998,3.280
507,4.252,3.695
508,4.438,4.013
510,2.136,3.563
512,1.466,2.605
513,1.026,1.901
515,0.733,1.388
516,0.533,1.007
518,0.386,0.738
519,2.810,1.486
520,3.412,2.356
522,3.827,3.011
523,4.140,3.495
525,4.350,3.861
526,4.506,4.135
527,1.769,3.065
529,1.227,2.234
530,0.880,1.637
532,0.630,1.197
533,0.450,0.870
535,2.380,0.929
536,3.128,1.940
537,3.636,2.693
539,3.988,3.260
540,4.252,3.685
542,4.438,4.008
543,2.170,3.607
544,1.481,2.634
546,1.051,1.926
547,0.743,1.403
549,0.538,1.022
550,0.396,0.753
551,2.781,1.457
553,3.402,2.331
555,3.817,2.986
557,4.125,3.485
558,4.350,3.856
560,4.501,4.130
561,1.794,3.089
562,1.251,2.263
564,0.885,1.647
565,0.630,1.202
567,0.455,0.880
568,2.341,0.890
569,3.113,1.911
571,3.617,2.674
572,3.974,3.245
574,4.242,3.675
575,4.423,3.993
576,2.199,3.641
578,1.500,2.659
579,1.046,1.935
581,0.753,1.417
582,0.543,1.036
584,0.396,0.758
585,2.761,1.422
586,3.377,2.307
588,3.807,2.967
589,4.115,3.465
591,4.340,3.842
592,4.501,4.120
593,1.813,3.123
595,1.261,2.283
596,0.899,1.667
599,0.635,1.217
600,0.464,0.890
601,2.322,0.855
603,3.089,1.882
604,3.602,2.649
606,3.974,3.231
607,4.233,3.661
608,4.423,3.993
610,2.219,3.671
611,1.520,2.693
613,1.070,1.960
614,0.758,1.432
616,0.547,1.046
617,0.391,0.762
618,2.737,1.398
620,3.363,2.283
621,3.798,2.952
623,4.110,3.456
624,4.335,3.837
625,4.487,4.120
627,1.833,3.152
628,1.276,2.307
630,0.909,1.676
631,0.655,1.232
632,0.464,0.894
634,0.323,0.806
635,3.074,1.852
637,3.597,2.634
638,3.964,3.216
641,4.223,3.646
642,4.423,3.974
643,2.258,3.705
645,1.530,2.713
646,1.085,1.979
648,0.762,1.442
649,0.552,1.056
650,0.401,0.772
652,2.717,1.369
653,3.353,2.263
655,3.788,2.933
656,4.101,3.446
657,4.326,3.817
659,4.497,4.106
660,1.852,3.187
662,1.290,2.331
663,0.909,1.696
665,0.650,1.237
666,0.479,0.909
667,0.342,0.762
669,3.050,1.823
670,3.578,2.610
672,3.954,3.201
673,4.218,3.636
674,4.409,3.969
676,2.278,3.744
677,1.554,2.742
679,1.085,2.004
680,0.777,1.457
681,0.562,1.065
684,0.401,0.782
685,2.683,1.320
687,3.333,2.229
688,3.773,2.913
690,4.086,3.426
691,4.316,3.807
692,4.482,4.101
694,1.877,3.221
695,1.300,2.356
697,0.929,1.711
698,0.660,1.251
699,0.479,0.914
701,0.347,0.645
702,3.035,1.804
704,3.563,2.586
705,3.939,3.187
706,4.208,3.627
708,4.409,3.964
709,2.307,3.783
711,1.564,2.761
712,1.105,2.019
714,0.782,1.466
715,0.567,1.075
716,0.406,0.787
718,2.664,1.305
719,3.314,2.209
721,3.768,2.898
722,4.081,3.412
723,4.311,3.798
726,4.477,4.091
727,1.906,3.255
729,1.320,2.380
730,0.934,1.730
731,0.670,1.266
733,0.479,0.929
734,0.352,0.655
736,3.016,1.769
737,3.553,2.571
738,3.935,3.162
740,4.198,3.612
741,4.404,3.959
743,2.346,3.817
744,1.579,2.791
746,1.109,2.043
747,0.792,1.486
748,0.572,1.090
750,0.420,0.797
751,2.634,1.261
753,3.294,2.185
754,3.759,2.874
755,4.071,3.397
757,4.301,3.788
758,4.477,4.081
760,1.921,3.280
761,1.334,2.405
762,0.943,1.745
764,0.674,1.276
765,0.494,0.934
768,0.357,0.684
769,2.991,1.745
771,3.539,2.546
772,3.925,3.148
773,4.198,3.597
775,4.394,3.944
776,2.370,3.856
778,1.608,2.820
779,1.119,2.063
780,0.802,1.496
782,0.582,1.100
783,0.415,0.806
785,2.605,1.232
786,3.284,2.160
787,3.739,2.859
789,4.062,3.387
790,4.311,3.778
792,4.467,4.076
793,1.945,3.319
795,1.344,2.424
796,0.958,1.764
797,0.684,1.285
799,0.484,0.938
800,0.362,0.694
802,2.967,1.716
803,3.524,2.522
804,3.905,3.133
806,4.189,3.592
807,4.399,3.935
809,2.405,3.900
811,1.623,2.849
812,1.144,2.082
814,0.806,1.515
815,0.582,1.105
817,0.420,0.811
818,2.586,1.193
820,3.265,2.131
821,3.729,2.845
822,4.052,3.368
824,4.291,3.773
825,4.477,4.071
827,1.970,3.343
828,1.364,2.449
829,0.968,1.779
831,0.699,1.305
832,0.494,0.948
834,0.362,0.694
835,2.952,1.686
836,3.514,2.507
838,3.905,3.118
839,4.184,3.583
841,4.394,3.920
842,2.444,3.935
844,1.642,2.869
845,1.144,2.102
846,0.816,1.530
848,0.591,1.114
849,0.425,0.816
851,2.556,1.163
852,3.250,2.111
854,3.715,2.820
856,4.042,3.363
857,4.286,3.763
859,4.457,4.062
860,1.994,3.382
861,1.378,2.468
863,0.978,1.799
864,0.694,1.315
866,0.508,0.963
867,0.362,0.699
868,2.928,1.662
870,3.500,2.478
871,3.891,3.104
873,4.179,3.568
874,4.379,3.915
876,2.463,3.969
877,1.672,2.903
878,1.163,2.121
880,0.826,1.544
881,0.601,1.124
883,0.425,0.826
884,2.532,1.129
885,3.231,2.082
887,3.705,2.805
888,4.042,3.343
890,4.277,3.749
891,4.462,4.047
892,2.023,3.416
894,1.393,2.493
896,0.982,1.823
898,0.704,1.334
899,0.508,0.973
901,0.371,0.709
902,2.908,1.628
903,3.485,2.463
905,3.881,3.084
906,4.164,3.553
908,4.374,3.905
909,4.531,4.013
910,1.681,2.937
912,1.178,2.141
913,0.836,1.564
915,0.596,1.139
916,0.440,0.841
917,2.512,1.095
919,3.211,2.058
920,3.700,2.781
922,4.027,3.328
923,4.282,3.739
925,4.457,4.042
926,2.048,3.446
927,1.413,2.522
929,0.997,1.838
930,0.709,1.344
932,0.513,0.978
933,0.376,0.714
934,2.884,1.598
936,3.460,2.439
937,3.866,3.065
940,4.159,3.539
941,4.370,3.900
942,4.531,4.052
944,1.701,2.962
945,1.188,2.165
947,0.841,1.584
948,0.606,1.149
950,0.440,0.846
951,2.473,1.056
952,3.192,2.033
954,3.680,2.766
955,4.022,3.309
957,4.267,3.729
958,4.457,4.037
959,2.077,3.480
961,1.427,2.546
962,1.012,1.857
964,0.714,1.359
965,0.518,0.987
966,0.376,0.723
968,2.859,1.564
969,3.451,2.405
971,3.851,3.050
972,4.154,3.529
974,4.365,3.881
975,4.516,4.154
976,1.716,2.986
978,1.207,2.185
979,0.855,1.593
982,0.616,1.163
983,0.445,0.850
984,2.449,1.031
986,3.182,1.999
987,3.661,2.747
989,4.018,3.299
990,4.267,3.715
991,4.448,4.027
993,2.102,3.509
994,1.447,2.571
996,1.017,1.872
997,0.728,1.364
999,0.523,0.997
1000,0.381,0.728